All calculations,Vmesa_ESS_690V,ESS_GC,PQ_Meas_BCs_CurrentSource,ESS_GC,ESS_GC,BC_DCLinkSide,FC_DCLinkSide
"b:tnow in s","s:u in p.u.","m:Psum:busac in MW","s:p in p.u.","s:uDC in p.u.","s:iDC in p.u.","s:i0dc in p.u.","s:i0dc in p.u."
-0.099669,0.977084,-0.172510,0.000276,1.000000,0.013649,0.000144,0.000001
-0.098942,0.983460,-0.320337,0.001502,1.000000,0.006278,0.000799,0.000005
-0.098279,0.991184,-0.568603,0.002995,1.000000,0.036486,0.001721,0.000011
-0.097632,0.999219,-0.790606,0.005335,1.000000,0.056546,0.002843,0.000019
-0.096909,0.999003,-0.964812,0.008295,1.000000,0.059503,0.004053,0.000028
-0.096210,1.002186,-1.041340,0.012541,1.000000,0.068798,0.005352,0.000037
-0.095517,1.005245,-1.109577,0.016403,1.000000,0.082949,0.006695,0.000047
-0.094865,1.005679,-1.150061,0.021668,1.000000,0.094825,0.008021,0.000057
-0.094172,1.009963,-1.134753,0.023917,1.000000,0.095530,0.009392,0.000068
-0.093497,1.007171,-1.164932,0.023833,1.000000,0.083510,0.010750,0.000079
-0.092815,1.006557,-1.157892,0.026334,1.000000,0.083218,0.012159,0.000090
-0.092126,1.007671,-1.143294,0.025220,1.000000,0.087249,0.013583,0.000102
-0.091461,1.008452,-1.144742,0.027799,1.000000,0.091783,0.014957,0.000113
-0.090783,1.010197,-1.111456,0.031911,1.000000,0.087981,0.016306,0.000125
-0.090087,1.007939,-1.118041,0.037296,1.000000,0.074734,0.017654,0.000137
-0.089407,1.008619,-1.087589,0.045592,1.000000,0.074767,0.019043,0.000149
-0.088718,1.009671,-1.063410,0.052083,1.000000,0.084716,0.020334,0.000161
-0.088061,1.010094,-1.064121,0.058960,1.000000,0.087006,0.021567,0.000173
-0.087369,1.011795,-1.029716,0.057909,1.000000,0.082686,0.022772,0.000185
-0.086714,1.009011,-1.040502,0.052424,1.000000,0.070665,0.023928,0.000196
-0.086012,1.008899,-1.025192,0.053285,1.000000,0.070302,0.025125,0.000209
-0.085334,1.009639,-1.005479,0.047684,1.000000,0.075299,0.026229,0.000220
-0.084638,1.009968,-1.009996,0.052969,1.000000,0.075222,0.027269,0.000232
-0.083934,1.010806,-0.982715,0.055363,1.000000,0.068608,0.028273,0.000243
-0.083259,1.009457,-0.968219,0.066904,1.000000,0.061329,0.029247,0.000254
-0.082540,1.010431,-0.948845,0.070975,1.000000,0.060271,0.030153,0.000265
-0.081865,1.010863,-0.926503,0.083257,1.000000,0.072773,0.030993,0.000275
-0.081163,1.012179,-0.913549,0.085622,1.000000,0.072971,0.031745,0.000285
-0.080523,1.012040,-0.905715,0.076931,1.000000,0.060899,0.032447,0.000294
-0.079859,1.009872,-0.898623,0.075195,1.000000,0.056308,0.033102,0.000304
-0.079161,1.010296,-0.883450,0.066991,1.000000,0.056922,0.033718,0.000312
-0.078482,1.011410,-0.860692,0.063431,1.000000,0.063705,0.034278,0.000321
-0.077776,1.011492,-0.867252,0.065410,1.000000,0.062160,0.034762,0.000329
-0.077117,1.012205,-0.843642,0.070122,1.000000,0.052231,0.035196,0.000336
-0.076441,1.010461,-0.829965,0.082490,1.000000,0.048708,0.035594,0.000344
-0.075740,1.011807,-0.810196,0.087009,1.000000,0.049350,0.035943,0.000351
-0.075049,1.012241,-0.790512,0.102349,1.000000,0.061628,0.036247,0.000357
-0.074350,1.013537,-0.783093,0.093117,1.000000,0.056249,0.036474,0.000363
-0.073677,1.012726,-0.774287,0.087316,1.000000,0.047238,0.036653,0.000368
-0.073001,1.011065,-0.765426,0.080804,1.000000,0.042657,0.036799,0.000373
-0.072316,1.011889,-0.747725,0.070059,1.000000,0.046401,0.036907,0.000378
-0.071649,1.012376,-0.743726,0.070552,1.000000,0.051961,0.036974,0.000382
-0.070952,1.013372,-0.731394,0.067754,1.000000,0.049266,0.036984,0.000385
-0.070259,1.012456,-0.725947,0.080974,1.000000,0.036989,0.036961,0.000389
-0.069541,1.011827,-0.700881,0.083696,1.000000,0.036285,0.036913,0.000392
-0.068878,1.012971,-0.683136,0.097078,1.000000,0.043553,0.036837,0.000394
-0.068138,1.015058,-0.652136,0.101249,1.000000,0.049580,0.036720,0.000396
-0.067465,1.013980,-0.668140,0.092715,1.000000,0.042476,0.036563,0.000398
-0.066806,1.012686,-0.666599,0.085549,1.000000,0.032696,0.036390,0.000399
-0.066114,1.012763,-0.640785,0.072727,1.000000,0.033299,0.036192,0.000399
-0.065377,1.011820,-0.652471,0.069424,1.000000,0.035658,0.035976,0.000400
-0.064725,1.014145,-0.624909,0.063154,1.000000,0.041918,0.035733,0.000400
-0.064040,1.013490,-0.630315,0.073783,1.000000,0.030872,0.035458,0.000400
-0.063335,1.012786,-0.612945,0.074355,1.000000,0.026091,0.035181,0.000399
-0.062660,1.012909,-0.600810,0.086844,1.000000,0.028511,0.034896,0.000398
-0.061938,1.013996,-0.577521,0.090670,1.000000,0.036371,0.034589,0.000397
-0.061261,1.014578,-0.580184,0.093701,1.000000,0.035989,0.034274,0.000395
-0.060566,1.015331,-0.555692,0.084903,1.000000,0.028375,0.033940,0.000394
-0.059887,1.012822,-0.567326,0.072611,1.000000,0.022160,0.033608,0.000392
-0.059217,1.012860,-0.560979,0.068510,1.000000,0.024091,0.033273,0.000389
-0.058520,1.013964,-0.542862,0.058496,1.000000,0.031084,0.032926,0.000387
-0.057788,1.013737,-0.555759,0.061501,1.000000,0.029160,0.032576,0.000384
-0.057141,1.014918,-0.529586,0.064783,1.000000,0.021502,0.032227,0.000382
-0.056468,1.012429,-0.535488,0.072136,1.000000,0.018390,0.031875,0.000379
-0.055761,1.014597,-0.504837,0.079002,1.000000,0.020852,0.031522,0.000376
-0.055064,1.014450,-0.500831,0.086983,1.000000,0.031052,0.031168,0.000372
-0.054361,1.016030,-0.485935,0.082130,1.000000,0.027977,0.030821,0.000369
-0.053732,1.014850,-0.497483,0.070887,1.000000,0.016759,0.030472,0.000366
-0.053059,1.013011,-0.492671,0.067351,1.000000,0.014087,0.030126,0.000362
-0.052324,1.013923,-0.477102,0.055674,1.000000,0.019621,0.029788,0.000358
-0.051664,1.015098,-0.461595,0.054311,1.000000,0.025993,0.029457,0.000355
-0.050979,1.014630,-0.481863,0.055216,1.000000,0.021009,0.029133,0.000351
-0.050316,1.014571,-0.469166,0.059228,1.000000,0.012421,0.028793,0.000347
-0.049603,1.013487,-0.452929,0.068493,1.000000,0.011958,0.028472,0.000343
-0.048885,1.015160,-0.430980,0.072465,1.000000,0.017813,0.028156,0.000339
-0.048246,1.015547,-0.426894,0.079642,1.000000,0.024995,0.027856,0.000336
-0.047551,1.016605,-0.417451,0.070812,1.000000,0.017607,0.027564,0.000332
-0.046876,1.014669,-0.432200,0.063843,1.000000,0.009096,0.027264,0.000328
-0.046197,1.013785,-0.421755,0.056170,1.000000,0.008460,0.026983,0.000324
-0.045478,1.014217,-0.413613,0.049759,1.000000,0.013751,0.026704,0.000321
-0.044836,1.015661,-0.402362,0.049058,1.000000,0.019012,0.026440,0.000317
-0.044120,1.015504,-0.403677,0.049618,1.000000,0.011020,0.026173,0.000313
-0.043386,1.013842,-0.410586,0.058556,1.000000,0.005316,0.025909,0.000310
-0.042714,1.014286,-0.391248,0.061920,1.000000,0.006668,0.025667,0.000306
-0.041963,1.015286,-0.373221,0.067238,1.000000,0.014143,0.025426,0.000302
-0.041277,1.016678,-0.364506,0.068255,1.000000,0.014990,0.025197,0.000299
-0.040625,1.016508,-0.356571,0.064678,1.000000,0.006804,0.024965,0.000296
-0.039887,1.013657,-0.380670,0.053179,1.000000,0.002061,0.024745,0.000292
-0.039184,1.013904,-0.372315,0.048196,1.000000,0.004849,0.024535,0.000289
-0.038464,1.015321,-0.352242,0.044883,1.000000,0.011736,0.024339,0.000286
-0.037765,1.015366,-0.359924,0.045024,1.000000,0.009596,0.024150,0.000283
-0.037117,1.015706,-0.349379,0.048266,1.000000,0.001412,0.023957,0.000280
-0.036405,1.014357,-0.338554,0.056616,1.000000,0.000613,0.023778,0.000277
-0.035686,1.015085,-0.336775,0.058460,1.000000,0.003521,0.023613,0.000275
-0.035047,1.015752,-0.322707,0.066258,1.000000,0.012778,0.023458,0.000272
-0.034340,1.017107,-0.313505,0.060326,1.000000,0.006698,0.023297,0.000270
-0.033668,1.015493,-0.325712,0.056094,1.000000,-0.001457,0.023133,0.000267
-0.032914,1.014822,-0.308920,0.046249,1.000000,-0.001141,0.022981,0.000265
-0.032176,1.014532,-0.316233,0.044328,1.000000,0.001992,0.022840,0.000263
-0.031520,1.015695,-0.307272,0.039591,1.000000,0.009089,0.022707,0.000261
-0.030850,1.016140,-0.313886,0.045650,1.000000,0.000492,0.022569,0.000259
-0.030115,1.015021,-0.302064,0.047251,1.000000,-0.004647,0.022434,0.000257
-0.029415,1.015082,-0.287702,0.055684,1.000000,-0.003209,0.022316,0.000255
-0.028733,1.016249,-0.269084,0.058205,1.000000,0.003826,0.022207,0.000254
-0.028062,1.015521,-0.291995,0.061122,1.000000,0.006099,0.022098,0.000252
-0.027360,1.017928,-0.258188,0.055891,1.000000,-0.002010,0.021979,0.000251
-0.026665,1.014287,-0.284355,0.049305,1.000000,-0.007521,0.021866,0.000249
-0.025926,1.014816,-0.271798,0.041568,1.000000,-0.004401,0.021762,0.000248
-0.025253,1.015084,-0.266612,0.041878,1.000000,0.000691,0.021670,0.000247
-0.024543,1.016377,-0.258667,0.038746,1.000000,0.000839,0.021574,0.000246
-0.023867,1.016100,-0.260236,0.043711,1.000000,-0.006932,0.021469,0.000245
-0.023142,1.014870,-0.247862,0.048476,1.000000,-0.009625,0.021376,0.000244
-0.022461,1.015722,-0.241968,0.054432,1.000000,-0.005379,0.021293,0.000243
-0.021721,1.016444,-0.228049,0.057085,1.000000,0.001589,0.021212,0.000242
-0.021063,1.017183,-0.222449,0.057863,1.000000,-0.001471,0.021124,0.000241
-0.020341,1.016521,-0.227180,0.049006,1.000000,-0.011139,0.021033,0.000241
-0.019641,1.014247,-0.237324,0.044858,1.000000,-0.011560,0.020950,0.000240
-0.018916,1.015409,-0.223859,0.038484,1.000000,-0.006818,0.020875,0.000239
-0.018168,1.015575,-0.229701,0.038030,1.000000,-0.001475,0.020803,0.000239
-0.017520,1.016560,-0.215646,0.038669,1.000000,-0.008308,0.020717,0.000239
-0.016799,1.015513,-0.217519,0.046303,1.000000,-0.013669,0.020635,0.000238
-0.016088,1.014822,-0.214066,0.049194,1.000000,-0.011897,0.020568,0.000238
-0.015372,1.016921,-0.181107,0.055648,1.000000,-0.005080,0.020506,0.000238
-0.014677,1.016957,-0.190144,0.055287,1.000000,-0.002431,0.020438,0.000237
-0.013960,1.017620,-0.183413,0.051191,1.000000,-0.011899,0.020359,0.000237
-0.013274,1.014555,-0.203544,0.044294,1.000000,-0.015981,0.020287,0.000237
-0.012537,1.015249,-0.192319,0.039205,1.000000,-0.012767,0.020223,0.000237
-0.011837,1.015184,-0.190717,0.037477,1.000000,-0.006585,0.020166,0.000237
-0.011175,1.017027,-0.180145,0.037506,1.000000,-0.007546,0.020101,0.000237
-0.010468,1.015775,-0.198535,0.041394,1.000000,-0.014884,0.020028,0.000237
-0.009731,1.014775,-0.178608,0.044672,1.000000,-0.018333,0.019967,0.000237
-0.009034,1.016235,-0.160498,0.052628,1.000000,-0.010465,0.019916,0.000237
-0.008343,1.016772,-0.152660,0.053827,1.000000,-0.007010,0.019866,0.000237
-0.007680,1.017550,-0.153212,0.052700,1.000000,-0.009111,0.019804,0.000237
-0.007010,1.016682,-0.158476,0.047362,1.000000,-0.018227,0.019740,0.000237
-0.006270,1.014219,-0.172063,0.041280,1.000000,-0.019057,0.019684,0.000237
-0.005532,1.015642,-0.151095,0.036654,1.000000,-0.013885,0.019637,0.000237
-0.004864,1.016488,-0.146482,0.035968,1.000000,-0.008701,0.019591,0.000237
-0.004157,1.016346,-0.153564,0.036969,1.000000,-0.015006,0.019533,0.000237
-0.003401,1.015289,-0.152897,0.044056,1.000000,-0.019915,0.019476,0.000237
-0.002688,1.015392,-0.141495,0.047274,1.000000,-0.018998,0.019434,0.000238
-0.001963,1.016545,-0.119631,0.052043,1.000000,-0.011907,0.019396,0.000238
-0.001319,1.017383,-0.126159,0.051399,1.000000,-0.011723,0.019353,0.000238
-0.000641,1.017659,-0.109237,0.049897,1.000000,-0.018935,0.019300,0.000238
0.000112,1.014579,-0.140507,0.041762,0.999670,-0.022309,0.019884,0.000238
0.000816,1.014279,-0.143799,0.042239,0.998501,-0.018444,0.021734,0.000238
0.001536,1.015452,-0.141345,0.042907,0.998043,-0.010456,0.023520,0.000239
0.002253,1.015834,-0.159121,0.045153,0.998154,-0.010930,0.025108,0.000239
0.002959,1.015146,-0.182247,0.057087,0.997731,-0.017184,0.026723,0.000239
0.003706,1.013914,-0.187826,0.065103,0.997121,-0.015637,0.028357,0.000239
0.004418,1.015437,-0.191676,0.077464,0.997019,-0.008957,0.029894,0.000240
0.005119,1.016062,-0.199860,0.083868,0.997816,-0.000264,0.031323,0.000240
0.005760,1.017579,-0.198164,0.087425,0.998708,-0.005623,0.032597,0.000240
0.006502,1.015072,-0.222081,0.076542,0.998893,-0.012727,0.033881,0.000240
0.007210,1.014498,-0.216131,0.071236,0.998965,-0.012167,0.035223,0.000241
0.007938,1.015060,-0.211580,0.069590,0.999448,-0.007099,0.036517,0.000242
0.008641,1.016370,-0.201777,0.067244,1.000588,-0.003501,0.037642,0.000242
0.009317,1.017035,-0.194202,0.075477,1.001276,-0.013048,0.038663,0.000243
0.010058,1.015256,-0.172071,0.088370,1.001194,-0.019005,0.039775,0.000243
0.010781,1.015474,-0.158667,0.102666,1.001020,-0.015986,0.040853,0.000244
0.011466,1.017391,-0.116508,0.113769,1.001309,-0.010270,0.041817,0.000245
0.012138,1.017584,-0.122296,0.117658,1.002053,-0.010534,0.042605,0.000246
0.012840,1.017801,-0.108645,0.104520,1.002024,-0.021942,0.043310,0.000246
0.013558,1.014661,-0.111533,0.095943,1.001395,-0.024889,0.044044,0.000247
0.014285,1.015876,-0.095829,0.083822,1.000908,-0.021375,0.044715,0.000248
0.015014,1.015051,-0.107813,0.084459,1.001070,-0.014807,0.045258,0.000249
0.015663,1.017314,-0.085153,0.083076,1.001371,-0.019926,0.045627,0.000250
0.016375,1.016066,-0.092075,0.101611,1.000898,-0.026323,0.045975,0.000250
0.017129,1.014316,-0.097801,0.109179,1.000119,-0.025172,0.046324,0.000251
0.017861,1.016395,-0.072517,0.121943,0.999739,-0.018906,0.046597,0.000252
0.018536,1.016886,-0.085868,0.128708,1.000168,-0.013834,0.046729,0.000253
0.019248,1.017422,-0.078087,0.118885,1.000314,-0.021722,0.046729,0.000254
0.019958,1.015013,-0.103265,0.106501,0.999754,-0.026041,0.046739,0.000254
0.020686,1.014835,-0.105501,0.092496,0.999220,-0.022478,0.046749,0.000255
0.021440,1.014978,-0.111063,0.083993,0.999262,-0.015616,0.046747,0.000256
0.022119,1.016139,-0.119481,0.087289,0.999912,-0.015585,0.046609,0.000257
0.022859,1.016396,-0.109935,0.091847,0.999924,-0.023084,0.046415,0.000257
0.023592,1.014586,-0.113345,0.110870,0.999412,-0.023176,0.046324,0.000258
0.024285,1.015235,-0.118591,0.114734,0.999119,-0.019222,0.046226,0.000259
0.024965,1.016913,-0.095710,0.129095,0.999558,-0.010772,0.046106,0.000260
0.025663,1.017642,-0.103729,0.118584,1.000147,-0.015620,0.045885,0.000260
0.026391,1.016008,-0.115982,0.110139,0.999958,-0.023029,0.045685,0.000261
0.027131,1.014154,-0.123195,0.094421,0.999449,-0.022773,0.045553,0.000262
0.027861,1.015532,-0.107072,0.083525,0.999303,-0.017368,0.045471,0.000263
0.028537,1.015018,-0.137677,0.085393,0.999898,-0.012715,0.045343,0.000263
0.029266,1.017177,-0.112610,0.085841,1.000212,-0.019753,0.045142,0.000264
0.029985,1.015068,-0.112387,0.102598,0.999763,-0.024451,0.045052,0.000265
0.030714,1.014729,-0.116999,0.107598,0.999237,-0.022256,0.045014,0.000266
0.031374,1.016879,-0.081621,0.126118,0.999269,-0.013470,0.045011,0.000267
0.032074,1.017487,-0.094874,0.120449,0.999894,-0.013147,0.044925,0.000268
0.032785,1.016890,-0.108043,0.113385,0.999912,-0.020852,0.044830,0.000269
0.033512,1.014350,-0.112283,0.095332,0.999343,-0.024255,0.044830,0.000270
0.034261,1.014398,-0.123947,0.087306,0.998933,-0.020625,0.044888,0.000271
0.034918,1.015951,-0.099146,0.080087,0.999177,-0.013453,0.044966,0.000272
0.035564,1.016570,-0.113094,0.086788,0.999699,-0.017180,0.044968,0.000273
0.036331,1.015197,-0.126153,0.095126,0.999501,-0.023107,0.045016,0.000274
0.037086,1.014559,-0.113699,0.103508,0.998923,-0.024088,0.045183,0.000275
0.037781,1.015869,-0.101130,0.121583,0.998727,-0.016010,0.045396,0.000276
0.038530,1.016709,-0.108408,0.123304,0.999318,-0.011492,0.045565,0.000277
0.039240,1.017136,-0.100656,0.119108,0.999679,-0.018018,0.045675,0.000278
0.039925,1.014983,-0.122026,0.103028,0.999304,-0.024012,0.045882,0.000279
0.040659,1.014691,-0.116604,0.091623,0.998873,-0.021614,0.046168,0.000280
0.041362,1.014044,-0.133397,0.087932,0.998939,-0.015341,0.046508,0.000282
0.042061,1.016924,-0.110038,0.084291,0.999648,-0.014312,0.046770,0.000283
0.042751,1.016217,-0.116240,0.095905,0.999809,-0.021824,0.047030,0.000284
0.043501,1.014338,-0.116987,0.105072,0.999344,-0.024266,0.047421,0.000285
0.044238,1.015930,-0.099874,0.121047,0.999035,-0.020838,0.047861,0.000287
0.044933,1.015904,-0.102066,0.130875,0.999365,-0.012232,0.048290,0.000288
0.045639,1.017778,-0.088444,0.129000,1.000047,-0.015845,0.048624,0.000289
0.046306,1.016008,-0.106905,0.117438,0.999953,-0.023114,0.048990,0.000291
0.047069,1.014834,-0.095387,0.101180,0.999455,-0.024710,0.049478,0.000292
0.047761,1.014307,-0.111165,0.098300,0.999263,-0.020558,0.049989,0.000294
0.048466,1.016450,-0.089809,0.088885,0.999818,-0.013623,0.050461,0.000295
0.049140,1.016510,-0.106445,0.101640,1.000276,-0.021295,0.050839,0.000296
0.049869,1.015367,-0.093300,0.106103,0.999977,-0.026152,0.051297,0.000298
0.050585,1.015243,-0.080903,0.128961,0.999483,-0.025235,0.051858,0.000299
0.051267,1.016328,-0.067770,0.137463,0.999414,-0.018061,0.052391,0.000301
0.051962,1.016015,-0.090120,0.145666,1.000072,-0.014832,0.052832,0.000302
0.052659,1.018133,-0.062740,0.133816,1.000314,-0.022969,0.053223,0.000304
0.053358,1.014626,-0.081281,0.122258,0.999865,-0.027118,0.053701,0.000305
0.054113,1.014786,-0.082262,0.104025,0.999448,-0.024692,0.054246,0.000307
0.054773,1.015579,-0.068629,0.102942,0.999580,-0.018334,0.054770,0.000308
0.055476,1.016783,-0.071407,0.099869,1.000213,-0.019888,0.055174,0.000310
0.056233,1.015981,-0.078656,0.113937,1.000170,-0.027006,0.055590,0.000311
0.056958,1.014488,-0.069882,0.132543,0.999637,-0.027997,0.056135,0.000313
0.057714,1.015873,-0.059505,0.142335,0.999340,-0.023195,0.056656,0.000314
0.058415,1.016168,-0.064087,0.158846,0.999815,-0.016783,0.057118,0.000316
0.059079,1.017463,-0.051256,0.147247,1.000312,-0.022597,0.057466,0.000317
0.059777,1.016150,-0.055705,0.140420,1.000047,-0.028108,0.057862,0.000318
0.060528,1.014002,-0.076886,0.117803,0.999560,-0.027825,0.058345,0.000320
0.061267,1.014973,-0.064389,0.108696,0.999484,-0.022478,0.058846,0.000321
0.061938,1.016000,-0.072414,0.111908,1.000162,-0.019012,0.059243,0.000323
0.062653,1.016676,-0.055928,0.112299,1.000437,-0.025646,0.059563,0.000324
0.063407,1.014964,-0.059495,0.137049,1.000020,-0.030082,0.060016,0.000326
0.064113,1.015207,-0.055054,0.147277,0.999629,-0.027230,0.060492,0.000327
0.064836,1.016140,-0.042570,0.166709,0.999807,-0.019669,0.060945,0.000329
0.065519,1.017088,-0.049152,0.161163,1.000528,-0.020577,0.061263,0.000330
0.066178,1.017254,-0.036337,0.155220,1.000565,-0.027807,0.061570,0.000331
0.066930,1.014159,-0.056750,0.131581,1.000057,-0.030699,0.061993,0.000333
0.067668,1.014987,-0.046351,0.118533,0.999758,-0.026898,0.062433,0.000334
0.068338,1.015821,-0.044148,0.118986,1.000170,-0.020682,0.062840,0.000336
0.069048,1.016659,-0.046671,0.116288,1.000728,-0.024140,0.063098,0.000337
0.069731,1.015747,-0.044502,0.136300,1.000521,-0.031568,0.063435,0.000339
0.070469,1.015043,-0.027020,0.148342,0.999969,-0.031657,0.063867,0.000340
0.071161,1.015723,-0.027137,0.172095,0.999786,-0.024737,0.064277,0.000341
0.071863,1.016765,-0.025877,0.172894,1.000349,-0.021400,0.064602,0.000343
0.072549,1.017879,-0.013148,0.173445,1.000715,-0.026131,0.064827,0.000344
0.073299,1.015320,-0.027311,0.143110,1.000281,-0.032501,0.065167,0.000346
0.074013,1.014885,-0.026784,0.132256,0.999823,-0.030379,0.065539,0.000347
0.074716,1.015505,-0.022132,0.121561,0.999832,-0.024791,0.065919,0.000348
0.075426,1.015675,-0.039583,0.123691,1.000473,-0.023087,0.066178,0.000350
0.076084,1.016995,-0.018102,0.127668,1.000555,-0.030937,0.066409,0.000351
0.076795,1.014653,-0.024824,0.153848,1.000047,-0.033632,0.066792,0.000352
0.077531,1.014685,-0.034537,0.168750,0.999660,-0.028816,0.067179,0.000354
0.078263,1.016928,-0.000935,0.183534,0.999950,-0.022760,0.067531,0.000355
0.078937,1.016892,-0.015767,0.183360,1.000576,-0.024117,0.067742,0.000356
0.079641,1.016740,-0.010569,0.160953,1.000438,-0.032353,0.068004,0.000358
0.080341,1.014366,-0.023460,0.147672,0.999931,-0.033409,0.068356,0.000359
0.081068,1.015102,-0.020264,0.126898,0.999722,-0.028232,0.068752,0.000361
0.081763,1.015005,-0.037155,0.128716,1.000236,-0.022568,0.069079,0.000362
0.082464,1.016963,-0.014141,0.129789,1.000720,-0.028644,0.069300,0.000363
0.083158,1.015599,-0.020035,0.153704,1.000459,-0.034081,0.069640,0.000365
0.083886,1.014760,-0.016832,0.162268,0.999983,-0.033548,0.070047,0.000366
0.084578,1.016265,0.003531,0.192383,0.999941,-0.025956,0.070469,0.000368
0.085323,1.016495,-0.012543,0.189759,1.000625,-0.022820,0.070766,0.000369
0.086037,1.017274,-0.003009,0.182689,1.000922,-0.029720,0.071011,0.000370
